# Frequency (GHz) | real(S11) | imag(S11) | real(S21) | imag(S21)
2.200000000000000000e+02 -3.290408849720000140e-02 -1.866177320480000013e-01 2.732858955860000272e-01 -3.771354556079999920e-01
2.201100000000000136e+02 -6.058633700010000039e-02 -1.201095804570000009e-01 1.133468598129999949e-01 -4.490227401260000195e-01
2.202199999999999989e+02 -7.736195623869999982e-02 -1.262082345780000080e-02 -9.515213221309999636e-02 -4.579725265499999809e-01
2.203300000000000125e+02 -6.310093402859999479e-02 9.137184917929999650e-02 -2.972163259980000194e-01 -3.759770989419999876e-01
2.204399999999999977e+02 -4.875874519349999991e-02 1.630081236360000074e-01 -4.419845640660000075e-01 -2.026067078109999864e-01
2.205500000000000114e+02 -4.695268720390000095e-02 2.158833444119999945e-01 -4.959144294260000030e-01 1.067509036510000051e-02
2.206599999999999966e+02 -3.527554497120000132e-02 2.455565184350000096e-01 -4.674753546709999874e-01 2.139524668460000001e-01
2.207700000000000102e+02 -2.401034533979999955e-02 2.297344207760000090e-01 -3.689722418790000180e-01 3.862964212889999915e-01
2.208799999999999955e+02 -2.845297753809999941e-02 1.773982644079999949e-01 -2.092919647689999996e-01 5.084235668180000500e-01
2.209900000000000091e+02 -5.379838123919999937e-02 1.008744835849999938e-01 -1.312353089449999968e-02 5.553437471390000324e-01
2.210999999999999943e+02 -9.993483126159999341e-02 4.676440358160000033e-02 1.740979999299999970e-01 5.392884016040000450e-01
2.212100000000000080e+02 -1.189456135029999945e-01 1.036720350380000016e-02 3.620967268940000205e-01 4.557824730869999841e-01
2.213199999999999932e+02 -1.120417863130000052e-01 -2.765337750319999885e-02 5.080425143240000496e-01 2.972863316539999801e-01
2.214300000000000068e+02 -1.271947473289999908e-01 -5.568606033919999698e-02 5.966516733169999753e-01 8.339471369980000492e-02
2.215399999999999920e+02 -1.051484346390000046e-01 -3.032352775340000153e-02 5.752095580099999550e-01 -1.691126227380000124e-01
2.216500000000000057e+02 -5.578259751200000116e-02 5.409566685559999595e-03 4.646009206769999844e-01 -3.839783668519999860e-01
2.217599999999999909e+02 2.539785392580000065e-02 4.406439885499999903e-02 2.599982321259999840e-01 -5.437415242199999943e-01
2.218700000000000045e+02 1.167294904589999960e-01 6.461864709850000110e-02 2.348095178600000110e-02 -6.011429429050000328e-01
2.219799999999999898e+02 1.946258246900000044e-01 5.964567139739999913e-02 -2.247617393730000079e-01 -5.511169433589999667e-01
2.220900000000000034e+02 2.371466010809999969e-01 3.282550722360000339e-02 -4.121121466159999858e-01 -4.258289039129999898e-01
2.221999999999999886e+02 2.297074794769999873e-01 -9.670863859359999856e-03 -5.396186709400000447e-01 -2.593511343000000080e-01
2.223100000000000023e+02 1.679481714959999983e-01 -4.776512831449999941e-02 -6.043097972869999612e-01 -4.010803252459999718e-02
2.224199999999999875e+02 6.070854514840000327e-02 -5.823271721599999895e-02 -5.849867463110000054e-01 1.632258594040000010e-01
2.225300000000000011e+02 -5.502928048369999658e-02 -1.652504876260000102e-02 -4.826028943060000076e-01 3.503166735170000212e-01
2.226399999999999864e+02 -1.225534975530000042e-01 3.950142860409999734e-02 -3.374750614170000107e-01 5.059327483179999474e-01
2.227500000000000000e+02 -1.496349275109999932e-01 8.227441459890000308e-02 -1.243164688349999991e-01 5.882863402369999939e-01
2.228600000000000136e+02 -1.662037819620000023e-01 9.288423508410000029e-02 9.441965818410000266e-02 6.122542619709999689e-01
2.229699999999999989e+02 -1.255154609680000088e-01 1.119281575080000035e-01 3.410216271879999983e-01 5.268791317940000329e-01
2.230800000000000125e+02 -4.773976653809999804e-02 6.078458204869999909e-02 5.209850668909999927e-01 3.408503234390000136e-01
2.231899999999999977e+02 2.129974775020000190e-03 -3.048072382809999953e-02 6.142048239709999580e-01 1.147206872699999963e-01
2.233000000000000114e+02 3.090460225940000125e-02 -1.337530910970000098e-01 6.107028126719999950e-01 -1.351086646319999973e-01
2.234099999999999966e+02 1.102944090959999922e-02 -2.199792265889999876e-01 5.149430036540000311e-01 -3.459923863409999911e-01
2.235200000000000102e+02 -4.006407409909999717e-02 -2.540645897389999797e-01 3.514694869519999765e-01 -5.076545476910000465e-01
2.236299999999999955e+02 -9.560760110619999363e-02 -2.214836180210000005e-01 1.407456398009999943e-01 -6.007697582240000278e-01
2.237400000000000091e+02 -1.281100362539999982e-01 -1.321408450600000117e-01 -9.821256995200000617e-02 -6.095261573789999554e-01
2.238499999999999943e+02 -1.203742846849999992e-01 -9.051065891980000777e-03 -3.089994192120000260e-01 -5.295138359069999634e-01
2.239600000000000080e+02 -5.902966111900000146e-02 1.075615957380000043e-01 -4.783891439440000060e-01 -3.630312383170000157e-01
2.240699999999999932e+02 2.038266137239999956e-02 1.616081148390000055e-01 -5.828351974490000309e-01 -1.776037663220000062e-01
2.241800000000000068e+02 7.253351807589999978e-02 1.761038303380000059e-01 -6.167294979099999797e-01 6.046458706260000177e-02
2.242899999999999920e+02 9.497982263569999806e-02 1.596033424140000101e-01 -5.543797016139999645e-01 2.902078330519999860e-01
2.244000000000000057e+02 9.573212265970000578e-02 1.173011586069999945e-01 -4.179707467559999889e-01 4.701960980889999808e-01
2.245099999999999909e+02 5.421474948530000115e-02 5.398076772689999747e-02 -2.013488262889999991e-01 6.070213913919999538e-01
2.246200000000000045e+02 -1.930536702279999836e-02 2.040201798079999932e-04 3.537647426130000050e-02 6.366135478019999683e-01
2.247299999999999898e+02 -1.020048335189999988e-01 -2.015635371209999888e-02 2.676666080949999804e-01 5.748351216320000123e-01
2.248400000000000034e+02 -1.501919925209999895e-01 -8.792314678430000405e-03 4.590053856369999963e-01 4.383062124250000080e-01
2.249499999999999886e+02 -1.707435250279999983e-01 3.170683979989999835e-03 6.071907877919999752e-01 2.216154336929999913e-01
2.250600000000000023e+02 -1.571191251279999979e-01 3.066301345830000150e-02 6.449267268180000068e-01 -3.742648661140000194e-02
2.251699999999999875e+02 -1.010156720879999970e-01 6.156099587680000096e-02 5.749316215519999496e-01 -2.854858338829999731e-01
2.252800000000000011e+02 -3.763660788539999842e-04 7.010566443200000331e-02 4.149435460570000123e-01 -4.804446995259999964e-01
2.253899999999999864e+02 1.068880632519999957e-01 3.103122860189999957e-02 2.038514018060000044e-01 -5.886855721470000136e-01
2.255000000000000000e+02 1.547804921869999906e-01 -3.363431990150000245e-02 -2.608816139400000136e-03 -6.224123835560000373e-01
2.256100000000000136e+02 1.785661876200000109e-01 -6.347763538360000346e-02 -2.422208487989999937e-01 -5.923877954480000207e-01
2.257199999999999989e+02 1.804969310760000112e-01 -9.256912022829999476e-02 -4.411605298519999940e-01 -4.685340225699999861e-01
2.258300000000000125e+02 1.489800959829999938e-01 -1.047651991249999998e-01 -5.861415266989999928e-01 -2.971299588679999770e-01
2.259399999999999977e+02 9.216864407060000597e-02 -9.094115346669999489e-02 -6.578909158710000149e-01 -6.086611002680000077e-02
2.260500000000000114e+02 2.938222140070000099e-02 -5.043047666549999725e-02 -6.356812715530000268e-01 1.951383948329999951e-01
2.261599999999999966e+02 -3.001090139149999864e-02 3.717857412990000030e-03 -4.993760585779999928e-01 4.264840483669999904e-01
2.262700000000000102e+02 -6.270334869620000640e-02 7.334865629669999609e-02 -2.898724079130000075e-01 5.941085219380000115e-01
2.263799999999999955e+02 -5.858542025090000133e-02 1.165825426579999990e-01 -2.078152634199999932e-02 6.490385532379999711e-01
2.264900000000000091e+02 -3.893825411799999719e-02 1.227562129499999988e-01 2.376758456230000094e-01 6.025729775429999879e-01
2.265999999999999943e+02 3.441270440820000040e-03 1.093809008600000049e-01 4.716954529290000031e-01 4.597474038600000146e-01
2.267100000000000080e+02 5.028608441349999986e-02 1.662783324720000164e-02 5.899926424029999783e-01 2.252417504789999969e-01
2.268199999999999932e+02 3.352344408630000133e-02 -8.430674672129999381e-02 6.211415529249999512e-01 1.706873066720000082e-02
2.269300000000000068e+02 -3.605380654340000195e-03 -1.477924585339999985e-01 5.935118794439999679e-01 -2.117321491240000131e-01
2.270399999999999920e+02 -3.213362395759999934e-02 -1.894752383230000059e-01 4.847049415110000203e-01 -4.145387113089999964e-01
2.271500000000000057e+02 -7.501125335689999563e-02 -2.063655108209999922e-01 3.123699128629999766e-01 -5.501762628559999646e-01
2.272599999999999909e+02 -1.195555552839999980e-01 -1.661753654479999898e-01 9.393437951800000241e-02 -6.258102059360000080e-01
2.273700000000000045e+02 -1.303056776519999904e-01 -7.478180527689999579e-02 -1.526216864590000111e-01 -6.095625758170000186e-01
2.274799999999999898e+02 -8.690944314000000059e-02 3.507675975559999826e-02 -3.754910826680000202e-01 -5.053256750110000084e-01
2.275900000000000034e+02 8.619781583550000176e-04 1.182118803259999962e-01 -5.355509519579999544e-01 -3.102258145810000145e-01
2.276999999999999886e+02 9.715449064969999826e-02 1.477971822019999992e-01 -6.009697914120000206e-01 -8.634194731710000126e-02
2.278100000000000023e+02 1.645774245259999935e-01 1.231285184620000001e-01 -5.777358412740000171e-01 1.452268958090000006e-01
2.279199999999999875e+02 1.766346096989999948e-01 6.447496265169999630e-02 -4.809530377390000000e-01 3.454670608040000257e-01
2.280300000000000011e+02 1.260160803790000006e-01 -3.161206841470000188e-03 -3.295892179009999867e-01 4.817403852939999842e-01
2.281399999999999864e+02 1.736102253199999987e-02 -3.519080206749999884e-02 -1.404620110990000004e-01 5.686171054840000183e-01
2.282500000000000000e+02 -8.736976236099999737e-02 -9.626179002229999504e-03 6.396776437760000322e-02 5.763115882870000206e-01
2.283600000000000136e+02 -1.438768357040000057e-01 3.599155694250000259e-02 2.586007416250000190e-01 5.311496853830000031e-01
2.284699999999999989e+02 -1.690061986449999942e-01 7.304918766019999343e-02 4.569316804410000210e-01 3.974018394950000199e-01
2.285800000000000125e+02 -1.586667746310000127e-01 1.108367741109999999e-01 5.780506730079999489e-01 1.934941112999999935e-01
2.286899999999999977e+02 -9.859543293710000544e-02 1.311879307029999997e-01 6.118091344830000056e-01 -7.222887128589999817e-02
2.288000000000000114e+02 -6.015188992020000305e-03 1.205055713649999943e-01 5.237128734589999723e-01 -3.277173042300000061e-01
2.289099999999999966e+02 9.796057641510000358e-02 6.104912608859999756e-02 3.257960081099999794e-01 -5.170182585720000112e-01
2.290200000000000102e+02 1.656262278560000079e-01 -3.885335475210000000e-02 9.350480139260000656e-02 -5.878555178640000323e-01
2.291299999999999955e+02 1.770064085720000069e-01 -1.306052505970000110e-01 -1.351964324709999943e-01 -5.727247595790000423e-01
2.292400000000000091e+02 1.462651193139999917e-01 -1.905471980569999890e-01 -3.287710547450000131e-01 -4.767461121079999975e-01
2.293499999999999943e+02 7.426643371579999542e-02 -2.021917402739999980e-01 -4.667696654799999845e-01 -3.294001221660000089e-01
2.294600000000000080e+02 4.371954128150000159e-05 -1.521718353029999915e-01 -5.431843400000000432e-01 -1.407702863220000045e-01
2.295699999999999932e+02 -5.498586222529999734e-02 -4.155253618960000339e-02 -5.570486187930000499e-01 4.013491049409999983e-02
2.296800000000000068e+02 -4.176618531350000108e-02 7.638783752920000336e-02 -5.118240714070000363e-01 2.289375215770000083e-01
2.297899999999999920e+02 6.098130717869999773e-03 1.398641914129999941e-01 -3.917851150039999841e-01 4.279659688470000001e-01
2.299000000000000057e+02 3.246875107290000256e-02 1.660060286520000095e-01 -1.850068271160000000e-01 5.497852563859999542e-01
2.300099999999999909e+02 7.811594009399999705e-02 1.469250917430000025e-01 5.236432328820000287e-02 5.867953300479999967e-01
2.301200000000000045e+02 9.114765375849999407e-02 7.248472422360000000e-02 2.929120659830000140e-01 5.216461420060000131e-01
2.302299999999999898e+02 5.736682936549999945e-02 -2.259176224470000119e-02 4.811434745789999745e-01 3.649614751340000129e-01
2.303400000000000034e+02 -1.476732641459999919e-02 -1.034903824330000027e-01 5.878186821940000195e-01 1.292602717880000085e-01
2.304499999999999886e+02 -9.825566411019999447e-02 -1.491346508259999981e-01 5.849258303640000323e-01 -1.117291674019999931e-01
2.305600000000000023e+02 -1.622147262099999931e-01 -1.533547639850000033e-01 4.998397231100000226e-01 -3.172345161440000005e-01
2.306699999999999875e+02 -1.935985982419999862e-01 -1.304872184989999961e-01 3.387748301030000242e-01 -4.833770990369999909e-01
2.307800000000000011e+02 -1.856511235240000113e-01 -8.503312617540000062e-02 1.304694116120000136e-01 -5.802944898609999624e-01
2.308899999999999864e+02 -1.371008455749999910e-01 -3.464830666779999957e-02 -1.184118241070000049e-01 -5.857511758800000301e-01
2.310000000000000000e+02 -5.715937539939999756e-02 3.110012039539999853e-03 -3.408111333850000202e-01 -4.927305877209999796e-01
2.311100000000000136e+02 2.612281963229999907e-02 1.237219013270000022e-02 -4.937825500970000059e-01 -3.300470709800000235e-01
2.312199999999999989e+02 8.654804527760000254e-02 1.095461845400000009e-02 -5.906330943109999732e-01 -1.130952611569999988e-01
2.313300000000000125e+02 1.281055212020000000e-01 -5.601383745669999848e-04 -5.868629217149999855e-01 1.200044974680000015e-01
2.314399999999999977e+02 1.308501213790000117e-01 -2.301731333139999877e-02 -5.080129504200000534e-01 3.189281225200000236e-01
2.315500000000000114e+02 7.417621463540000071e-02 -4.092532396319999849e-02 -3.668057620529999729e-01 4.617105126380000035e-01
2.316599999999999966e+02 1.772741414610000052e-02 -2.527688257400000083e-02 -1.722796261310000077e-01 5.813407301899999879e-01
2.317700000000000102e+02 -7.849167287350000688e-02 7.642323151230000222e-03 3.703175112610000014e-02 5.926141142849999932e-01
2.318799999999999955e+02 -1.414149850610000037e-01 8.214177191259999788e-02 2.410561889410000047e-01 5.421630144119999883e-01
2.319900000000000091e+02 -1.581436097620000092e-01 1.376170367000000005e-01 4.281727671619999787e-01 4.114328324789999769e-01
2.320999999999999943e+02 -1.477729082110000036e-01 1.634264737370000053e-01 5.650576949119999748e-01 2.028089016680000023e-01
2.322100000000000080e+02 -1.122360378499999978e-01 1.580056548119999904e-01 5.997208952899999446e-01 -3.916432708499999887e-02
2.323199999999999932e+02 -6.294774264100000405e-02 1.098534688349999955e-01 5.265803337100000148e-01 -2.901006042959999864e-01
2.324300000000000068e+02 -2.230922132730000021e-02 3.213535621759999739e-02 3.782520592210000254e-01 -4.652640521529999851e-01
2.325399999999999920e+02 2.462023869159999864e-03 -5.382659658789999690e-02 1.538862138990000072e-01 -5.784921050069999904e-01
2.326500000000000057e+02 8.758384734389999468e-03 -1.303215771909999876e-01 -6.868269294499999844e-02 -5.947257280350000119e-01
2.327599999999999909e+02 -9.924545884130000009e-05 -1.754712909460000025e-01 -2.656311690809999848e-01 -5.335236191750000190e-01
2.328700000000000045e+02 -8.051969110969999649e-03 -1.837210059169999965e-01 -4.231753051280000011e-01 -4.265674054620000044e-01
2.329799999999999898e+02 -9.005263447760000414e-03 -1.585780233140000051e-01 -5.464554429050000328e-01 -2.604102790360000030e-01
2.330900000000000034e+02 -9.968290105459999117e-04 -1.081409305330000015e-01 -6.116735935210000363e-01 -5.495319142940000012e-02
2.331999999999999886e+02 2.406126633290000053e-02 -3.472130000589999932e-02 -5.873128771779999591e-01 1.876221001149999956e-01
2.333100000000000023e+02 5.617160722609999823e-02 1.989764161410000065e-02 -4.799081981180000067e-01 4.055064618590000225e-01
2.334199999999999875e+02 9.099984169010000290e-02 6.829882413149999942e-02 -2.562307715420000243e-01 5.799786448479999912e-01
2.335300000000000011e+02 1.215033605690000046e-01 8.257379382849999727e-02 -7.767187198620000054e-04 6.342976093290000339e-01
2.336399999999999864e+02 1.284572482109999914e-01 5.907286703589999938e-02 2.609913647170000184e-01 5.713628530500000080e-01
2.337500000000000000e+02 8.462357521060000221e-02 5.458675324920000266e-03 4.671062529089999860e-01 4.149704277519999929e-01
2.338600000000000136e+02 -8.256323635579999529e-03 -4.022935032839999869e-02 5.763617157939999736e-01 2.069238126279999979e-01
2.339699999999999989e+02 -1.120251119139999973e-01 -4.090704023839999981e-02 6.162037253380000523e-01 2.646598266439999843e-03
2.340800000000000125e+02 -1.724555194379999989e-01 -2.687655389310000115e-02 5.841602683069999635e-01 -1.982920169830000023e-01
2.341899999999999977e+02 -2.076524496080000004e-01 -2.528331428770000042e-02 4.853732883929999797e-01 -3.915574848650000273e-01
2.343000000000000114e+02 -2.153304517269999940e-01 -2.042472921309999856e-02 3.114872276780000226e-01 -5.364884734149999446e-01
2.344099999999999966e+02 -1.786451637739999987e-01 -2.168678864839999887e-02 9.047809988259999936e-02 -6.115228533740000305e-01
2.345200000000000102e+02 -1.179787516590000002e-01 -5.394655466079999878e-02 -1.587822735309999955e-01 -5.954625606540000504e-01
2.346299999999999955e+02 -5.394496023650000027e-02 -1.108200028539999965e-01 -3.748831152920000243e-01 -4.758416712279999738e-01
2.347400000000000091e+02 -1.898426190020000015e-02 -1.769841164350000051e-01 -5.286079049109999595e-01 -2.738768160339999924e-01
2.348499999999999943e+02 -3.018470853569999932e-02 -2.157767415050000082e-01 -5.769789218899999961e-01 -5.366164073350000036e-02
2.349600000000000080e+02 -5.883359909060000004e-02 -1.936709582810000052e-01 -5.585455894469999460e-01 1.600549072030000020e-01
2.350699999999999932e+02 -6.744558364149999541e-02 -1.133461669089999985e-01 -4.687561690809999848e-01 3.568194508549999977e-01
2.351800000000000068e+02 -3.311580792069999946e-02 -1.236948836589999920e-02 -3.247905969620000222e-01 4.995436072350000201e-01
2.352899999999999920e+02 2.968687191610000151e-02 5.256781727080000327e-02 -1.256237775090000008e-01 5.985945463180000203e-01
2.354000000000000057e+02 5.829752981659999667e-02 7.214140892029999308e-02 1.108374446629999954e-01 6.138706803319999850e-01
2.355099999999999909e+02 6.997673213480000431e-02 8.495821803809999739e-02 3.165328204630000197e-01 5.348873138430000340e-01
2.356200000000000045e+02 3.598493710160000081e-02 7.694571465249999687e-02 5.017375946040000256e-01 3.762723803520000021e-01
2.357299999999999898e+02 -7.124561816450000230e-03 6.345237046479999810e-02 6.071255803109999460e-01 1.528331786390000058e-01
2.358400000000000034e+02 -8.473692089319999343e-02 5.279195308689999672e-02 6.169372797009999854e-01 -1.078230589629999986e-01
2.359499999999999886e+02 -1.498458832500000060e-01 5.550866946579999933e-02 5.136965513229999614e-01 -3.500192761420000132e-01
2.360600000000000023e+02 -1.913351118559999953e-01 5.946234241130000236e-02 3.179378509520000007e-01 -5.307396054270000496e-01
2.361700000000000159e+02 -2.026140093799999875e-01 5.183529108760000226e-02 7.923216372730000623e-02 -6.084172129629999981e-01
2.362800000000000011e+02 -1.928837448359999873e-01 2.890420705080000083e-02 -1.596710681919999986e-01 -5.855141878130000199e-01
2.363899999999999864e+02 -1.701866388319999979e-01 -2.061218023300000028e-03 -3.507785201070000025e-01 -4.870308637619999992e-01
2.365000000000000000e+02 -1.323925703759999961e-01 -3.328645974399999791e-02 -4.999866485600000243e-01 -3.200962841509999990e-01
2.366100000000000136e+02 -8.020085841419999362e-02 -6.256628781560000241e-02 -5.722324252129999955e-01 -1.273428350689999877e-01
2.367199999999999989e+02 -1.725164800880000029e-02 -9.598393738270000197e-02 -5.672524571420000106e-01 8.720178902149999800e-02
2.368300000000000125e+02 3.682936727999999715e-02 -1.355075985189999888e-01 -4.790376722810000265e-01 2.807683646679999812e-01
2.369399999999999977e+02 5.687427520749999826e-02 -1.738087981939999971e-01 -3.370350599290000138e-01 4.209016859529999821e-01
2.370500000000000114e+02 2.769779413939999976e-02 -1.805212199690000019e-01 -1.502389609810000082e-01 5.078476071359999677e-01
